!Created with skrf (http://scikit-rf.org).
# Hz S RI R 50.0 
!freq ReS11 ImS11 ReS21 ImS21 ReS12 ImS12 ReS22 ImS22
100000000.0 0.04734680109877329 0.025150063095595733 0.9507197727765898 -0.03468623377682439 0.9507197727765886 -0.03468623377682491 0.047346801098774115 0.02515006309559603
300000000.0 0.05107863649444415 0.07825778192124254 0.937577600753186 -0.09932524922783204 0.9375776007531846 -0.09932524922783141 0.05107863649444466 0.07825778192124148
500000000.0 0.0636339953795953 0.13225498670121544 0.9177713801879679 -0.15771916343965053 0.9177713801879686 -0.15771916343965048 0.06363399537959485 0.13225498670121416
700000000.0 0.08444663122725513 0.18315564422603775 0.8929517082491079 -0.21141837850538459 0.8929517082491072 -0.21141837850538486 0.08444663122725549 0.18315564422603609
900000000.0 0.11158733028652205 0.22941215079634933 0.8635675937344658 -0.26055459104418 0.8635675937344651 -0.2605545910441799 0.11158733028652239 0.22941215079634752
1100000000.0 0.14353325159080862 0.27054084674873863 0.8302550563638175 -0.30490054166287367 0.8302550563638178 -0.304900541662874 0.14353325159080854 0.2705408467487393
1300000000.0 0.17913598249632381 0.30639936891809894 0.7937379151677632 -0.3442795876909645 0.7937379151677625 -0.3442795876909641 0.1791359824963231 0.3063993689180956
1500000000.0 0.21746588498865949 0.3369744439791696 0.7547387165737467 -0.37860821907585085 0.7547387165737469 -0.3786082190758506 0.21746588498865624 0.33697444397916515
1700000000.0 0.2577198564649364 0.3623293936503288 0.7139533564662257 -0.4078905558473762 0.7139533564662259 -0.4078905558473763 0.2577198564649334 0.3623293936503249
1900000000.0 0.2991809995383559 0.3825955772253816 0.6720396968121557 -0.43221414849132106 0.672039696812156 -0.432214148491321 0.29918099953835564 0.3825955772253811
2100000000.0 0.341206886468462 0.39797009698477925 0.6296058028634539 -0.45174453279980925 0.6296058028634537 -0.45174453279980903 0.341206886468461 0.39797009698477714
2300000000.0 0.3832297661720084 0.40870938703198867 0.5871984428754227 -0.4667153299481067 0.5871984428754222 -0.4667153299481063 0.38322976617200744 0.408709387031987
2500000000.0 0.42475937456502066 0.41511804800921326 0.5452945316355287 -0.4774144383301765 0.5452945316355291 -0.4774144383301769 0.42475937456501955 0.4151180480092124
2700000000.0 0.46538411629865656 0.4175350363838287 0.5042968679169574 -0.48416838588777145 0.5042968679169577 -0.4841683858877719 0.4653841162986541 0.4175350363838265
2900000000.0 0.5047693214449069 0.41631944608313276 0.4645341472990897 -0.4873268610056316 0.46453414729909004 -0.48732686100563183 0.5047693214449064 0.41631944608313187
3100000000.0 0.5426527272188231 0.4118374784172053 0.42626446773256743 -0.48724882937848557 0.42626446773256743 -0.48724882937848535 0.5426527272188233 0.4118374784172056
3300000000.0 0.5788379096862888 0.40445148695369376 0.3896812833844219 -0.48429099096229633 0.389681283384422 -0.4842909909622966 0.5788379096862851 0.4044514869536914
3500000000.0 0.6131865071271765 0.39451142756437607 0.35492079639098545 -0.4787988191794019 0.35492079639098584 -0.4787988191794027 0.6131865071271719 0.39451142756437363
3700000000.0 0.6456099807415977 0.3823486741014649 0.32206994814970524 -0.471100085187096 0.322069948149705 -0.47110008518709556 0.6456099807415945 0.38234867410146234
3900000000.0 0.6760614851973621 0.36827194824867415 0.29117438489253616 -0.4615005779336917 0.29117438489253644 -0.4615005779336919 0.6760614851973572 0.3682719482486715
4100000000.0 0.704528240601338 0.3525650150385281 0.2622459749519127 -0.45028164645032176 0.2622459749519125 -0.45028164645032137 0.7045282406013393 0.3525650150385281
4300000000.0 0.7310246404075144 0.33548577379044037 0.2352696244543817 -0.4376991773437746 0.2352696244543815 -0.4376991773437741 0.7310246404075071 0.3354857737904363
4500000000.0 0.755586207272932 0.31726639689980674 0.21020926779252352 -0.42398364851051884 0.2102092677925237 -0.42398364851051884 0.7555862072729269 0.3172663968998036
4700000000.0 0.7782644209524764 0.2981142140611055 0.18701300138969784 -0.40934094879173055 0.18701300138969787 -0.40934094879173055 0.7782644209524733 0.29811421406110417
4900000000.0 0.7991223841734061 0.2782130927582144 0.16561739001752473 -0.3939537089092513 0.16561739001752457 -0.3939537089092508 0.7991223841734025 0.2782130927582123
5100000000.0 0.8182312576899631 0.2577251185468869 0.14595101128959986 -0.37798294331854754 0.14595101128959992 -0.37798294331854737 0.8182312576899562 0.25772511854688473
5300000000.0 0.8356673781675085 0.2367924261497173 0.12793732254230603 -0.3615698512111293 0.12793732254230586 -0.3615698512111286 0.835667378167505 0.2367924261497154
5500000000.0 0.8515099668579194 0.2155390726811706 0.11149694067571378 -0.34483766596133714 0.1114969406757137 -0.34483766596133714 0.8515099668579131 0.21553907268116834
5700000000.0 0.8658393389986375 0.19407287702515452 0.09654942400348768 -0.3278934755558437 0.09654942400348773 -0.32789347555584375 0.8658393389986317 0.19407287702515247
5900000000.0 0.8787355303715153 0.17248717499754945 0.08301463895749953 -0.3108299625375357 0.08301463895749944 -0.31082996253753564 0.8787355303715108 0.17248717499754856
6100000000.0 0.8902772662889918 0.1508624593609057 0.07081378586672914 -0.29372703170646947 0.07081378586672916 -0.29372703170646947 0.8902772662889885 0.15086245936090548
6300000000.0 0.9005412079553884 0.12926788807262177 0.059870148491964696 -0.27665330833560586 0.059870148491964675 -0.27665330833560553 0.9005412079553895 0.12926788807262163
6500000000.0 0.9096014207450192 0.10776265436683374 0.05010962250363464 -0.25966750002574573 0.050109622503634654 -0.25966750002574585 0.9096014207450112 0.10776265436683242
6700000000.0 0.9175290178994591 0.0863972193091217 0.041461069200284244 -0.24281962247264882 0.04146106920028425 -0.2428196224726489 0.9175290178994532 0.08639721930912103
6900000000.0 0.9243919411930326 0.06521441209502941 0.03385653276934919 -0.22615209413331344 0.03385653276934915 -0.22615209413331314 0.9243919411930283 0.0652144120950289
7100000000.0 0.9302548471417514 0.044250406216549396 0.02723135240262924 -0.20970070769367002 0.02723135240262922 -0.2097007076936704 0.9302548471417482 0.04425040621654931
7300000000.0 0.9351790733383976 0.023535581190834258 0.02152419459840607 -0.19349548785725243 0.02152419459840602 -0.19349548785725243 0.9351790733383905 0.02353558119083432
7500000000.0 0.939222664549449 0.0030952802142451804 0.016677025949232954 -0.17756144567955562 0.016677025949232958 -0.17756144567955562 0.9392226645494467 0.003095280214245497
7700000000.0 0.9424404424039167 -0.01704952583985865 0.012635042534900472 -0.16191923975610514 0.01263504253490053 -0.1619192397561053 0.9424404424039073 -0.01704952583985858
7900000000.0 0.9448841059482019 -0.03688165800650109 0.009346568607340879 -0.14658575424879572 0.009346568607340837 -0.1465857542487954 0.9448841059481955 -0.03688165800650142
8100000000.0 0.9466023531427542 -0.05638722291621587 0.006762934461065139 -0.13157460316043665 0.0067629344610651825 -0.13157460316043648 0.9466023531427539 -0.05638722291621619
8300000000.0 0.947641015636998 -0.07555517183083413 0.0048383411285399065 -0.11689656955265013 0.0048383411285400375 -0.11689656955265015 0.9476410156369864 -0.07555517183083349
8500000000.0 0.948043200969857 -0.09437691706373252 0.0035297177340701197 -0.1025599876240272 0.0035297177340701787 -0.10255998762402704 0.9480432009698484 -0.09437691706373125
8700000000.0 0.9478494377837919 -0.1128459986184924 0.0027965759030563527 -0.08857107477582954 0.0027965759030562816 -0.08857107477582979 0.9478494377837857 -0.11284599861849161
8900000000.0 0.9470978207786805 -0.13095779465404989 0.0026008644880820605 -0.07493422002526956 0.002600864488082043 -0.07493422002526941 0.9470978207786757 -0.1309577946540491
9100000000.0 0.9458241530255816 -0.14870927011414112 0.0029068269819772247 -0.061652234402132404 0.0029068269819772525 -0.06165223440213216 0.9458241530255738 -0.1487092701141408
9300000000.0 0.9440620839570288 -0.1660987585329149 0.0036808632932331707 -0.04872656829497012 0.0036808632932331595 -0.04872656829496996 0.9440620839570235 -0.16609875853291417
9500000000.0 0.9418432418894951 -0.18312577264180405 0.004891397021675419 -0.03615750010343961 0.0048913970216754804 -0.03615750010343967 0.9418432418894903 -0.18312577264180302
9700000000.0 0.9391973603470286 -0.1997908399543945 0.006508748960088909 -0.023944300004759788 0.006508748960088866 -0.023944300004759982 0.9391973603470278 -0.1997908399543944
9900000000.0 0.9361523977690082 -0.21609535999767693 0.008505017234504544 -0.012085372152981158 0.00850501723450463 -0.012085372152980924 0.9361523977690034 -0.21609535999767635
10100000000.0 0.9327346504205161 -0.23204148029333344 0.010853964261077759 -0.0005783781965722935 0.010853964261077906 -0.0005783781965717371 0.9327346504205144 -0.23204148029333369
10300000000.0 0.9289688584978654 -0.2476319885757552 0.013530910524048003 0.010579655381597518 0.01353091052404818 0.01057965538159794 0.9289688584978617 -0.2476319885757546
10500000000.0 0.9248783055479453 -0.2628702190691389 0.01651263505365453 0.02139224393204155 0.016512635053654523 0.02139224393204159 0.9248783055479362 -0.26287021906913666
10700000000.0 0.9204849114089964 -0.2777599709390298 0.019777282394356725 0.031863363436234596 0.01977728239435677 0.03186336343623463 0.9204849114089878 -0.2777599709390279
10900000000.0 0.9158093189407092 -0.2923054372886964 0.023304275793725328 0.041997379810087096 0.02330427579372525 0.041997379810086936 0.9158093189406986 -0.29230543728869374
11100000000.0 0.9108709748500247 -0.30651114329220763 0.027074236304204958 0.05179898731005379 0.02707423630420483 0.05179898731005328 0.9108709748500197 -0.30651114329220663
11300000000.0 0.9056882049408773 -0.3203818922479721 0.031068907468275564 0.061273154829851795 0.03106890746827558 0.06127315482985172 0.9056882049408743 -0.3203818922479714
11500000000.0 0.9002782841256632 -0.3339227185025757 0.03527108524821561 0.07042507904125192 0.03527108524821551 0.07042507904125167 0.9002782841256546 -0.33392271850257305
11700000000.0 0.8946575015366008 -0.347138846338261 0.03966455286141678 0.0792601434754088 0.03966455286141678 0.07926014347540881 0.8946575015365973 -0.34713884633825964
11900000000.0 0.8888412210689762 -0.36003565404129106 0.044234020188528574 0.08778388276469809 0.04423402018852861 0.08778388276469827 0.888841221068974 -0.36003565404128995
12100000000.0 0.8828439376774534 -0.3726186424753063 0.04896506743262399 0.09600195137153063 0.048965067432623924 0.09600195137153042 0.8828439376774496 -0.3726186424753046
12300000000.0 0.8766793297326585 -0.3848934075759448 0.053844092721618234 0.10392009622246978 0.053844092721618136 0.10392009622246988 0.8766793297326524 -0.38489340757594215
12500000000.0 0.870360307729379 -0.39686561626241323 0.05885826336216818 0.11154413274513471 0.05885826336216825 0.1115441327451347 0.8703603077293718 -0.3968656162624101
12700000000.0 0.8638990596206266 -0.40854098533009026 0.06399547047038304 0.11887992387354207 0.06399547047038323 0.11887992387354226 0.8638990596206225 -0.4085409853300883
12900000000.0 0.85730709303434 -0.41992526294720045 0.06924428672223201 0.12593336164630942 0.0692442867222319 0.12593336164630928 0.857307093034333 -0.41992526294719723
13100000000.0 0.8505952746120127 -0.4310242124293508 0.074593926984094 0.13271035107271736 0.07459392698409387 0.13271035107271728 0.8505952746120026 -0.4310242124293462
13300000000.0 0.8437738666913323 -0.4418435980094335 0.08003421160106547 0.1392167959852048 0.08003421160106557 0.13921679598520517 0.8437738666913337 -0.44184359800943374
13500000000.0 0.8368525615384198 -0.4523891723580777 0.0855555321372552 0.14545858663441924 0.08555553213725531 0.14545858663441913 0.8368525615384135 -0.4523891723580743
13700000000.0 0.8298405133193872 -0.462666665642274 0.09114881937814345 0.15144158881528655 0.09114881937814331 0.15144158881528635 0.8298405133193827 -0.4626666656422712
13900000000.0 0.8227463679860046 -0.4726817759377558 0.0968055134200376 0.1571716343404069 0.09680551342003753 0.1571716343404068 0.822746367985997 -0.47268177593775124
14100000000.0 0.8155782912361874 -0.48244016083483443 0.1025175356857864 0.16265451270114947 0.1025175356857865 0.1626545127011496 0.8155782912361855 -0.4824401608348333
14300000000.0 0.8083439946969075 -0.4919474300981763 0.10827726271900934 0.16789596377748772 0.10827726271900928 0.16789596377748775 0.8083439946969003 -0.4919474300981714
14500000000.0 0.8010507604649121 -0.5012091392589269 0.1140775016213597 0.17290167147553578 0.11407750162135974 0.17290167147553576 0.8010507604649119 -0.5012091392589266
14700000000.0 0.7937054641293532 -0.5102307840330867 0.11991146700859875 0.17767725818711005 0.11991146700859882 0.17767725818710994 0.7937054641293461 -0.5102307840330829
14900000000.0 0.7863145963900118 -0.5190177954734081 0.12577275937174884 0.18222827997903654 0.1257727593717488 0.18222827997903668 0.7863145963900049 -0.5190177954734039
15100000000.0 0.7788842833752119 -0.527575535773618 0.13165534473911544 0.18656022243135328 0.1316553447391156 0.1865602224313534 0.7788842833752053 -0.5275755357736138
15300000000.0 0.771420305754726 -0.5359092946537962 0.13755353554384686 0.19067849705357917 0.13755353554384703 0.190678497053579 0.7714203057547229 -0.5359092946537938
15500000000.0 0.7639281167349186 -0.5440242862643556 0.14346197260969945 0.19458843821678773 0.14346197260969962 0.19458843821678795 0.7639281167349137 -0.5440242862643525
15700000000.0 0.7564128590160053 -0.5519256465535787 0.14937560817510412 0.19829530054671565 0.14937560817510392 0.1982953005467154 0.7564128590160027 -0.5519256465535775
15900000000.0 0.748879380784586 -0.5596184310501566 0.15528968988231145 0.20180425672957608 0.15528968988231154 0.2018042567295761 0.7488793807845813 -0.5596184310501537
16100000000.0 0.7413322508084632 -0.5671076130178094 0.16119974566458362 0.20512039568789686 0.16119974566458375 0.2051203956878968 0.741332250808459 -0.5671076130178067
16300000000.0 0.7337757726951768 -0.5743980819439758 0.1671015694699478 0.20824872108853715 0.16710156946994786 0.20824872108853715 0.733775772695177 -0.5743980819439758
16500000000.0 0.7262139983705974 -0.5814946423288181 0.17299120776515584 0.21119415014932863 0.1729912077651561 0.2111941501493289 0.7262139983705941 -0.5814946423288161
16700000000.0 0.7186507408292816 -0.5884020127444975 0.17886494676812031 0.21396151271445032 0.17886494676812031 0.21396151271445052 0.718650740829282 -0.5884020127444984
16900000000.0 0.711089586204079 -0.5951248251379309 0.18471930036128476 0.21655555057187617 0.18471930036128487 0.21655555057187614 0.7110895862040736 -0.5951248251379266
17100000000.0 0.7035339051986654 -0.6016676243530568 0.19055099864228534 0.21898091698908817 0.1905509986422852 0.2189809169890882 0.7035339051986578 -0.6016676243530517
17300000000.0 0.6959868639231707 -0.6080348678511465 0.19635697707166266 0.22124217644566557 0.19635697707166266 0.2212421764456656 0.6959868639231656 -0.6080348678511418
17500000000.0 0.6884514341699212 -0.6142309256098293 0.20213436618062502 0.2233438045435727 0.2021343661806249 0.22334380454357255 0.6884514341699185 -0.6142309256098271
17700000000.0 0.6809304031634225 -0.6202600801834748 0.2078804818047038 0.22529018807784787 0.2078804818047037 0.22529018807784787 0.6809304031634194 -0.6202600801834721
17900000000.0 0.6734263828161059 -0.626126526909207 0.2135928158117824 0.22708562525208398 0.21359281581178244 0.22708562525208392 0.6734263828161001 -0.626126526909202
18100000000.0 0.6659418185189607 -0.6318343742443465 0.2192690272953463 0.22873432602456897 0.2192690272953461 0.2287343260245687 0.6659418185189547 -0.6318343742443406
18300000000.0 0.6584789974940184 -0.6373876442223965 0.22490693420599064 0.23024041257226796 0.2249069342059909 0.23024041257226813 0.6584789974940115 -0.63738764422239
18500000000.0 0.6510400567336738 -0.6427902730158391 0.23050450539619224 0.23160791986100052 0.2305045053961923 0.23160791986100032 0.6510400567336674 -0.6427902730158332
18700000000.0 0.6436269905500311 -0.6480461115950817 0.23605985305514676 0.23284079631118978 0.23605985305514682 0.23284079631118965 0.6436269905500283 -0.6480461115950795
18900000000.0 0.6362416577558222 -0.6531589264737807 0.2415712255121171 0.23394290454950095 0.24157122551211685 0.23394290454950079 0.636241657755819 -0.6531589264737772
19100000000.0 0.6288857884969395 -0.6581324005316672 0.24703700038825516 0.2349180222375042 0.24703700038825535 0.23491802223750433 0.6288857884969348 -0.658132400531663
19300000000.0 0.621560990755269 -0.6629701339066743 0.2524556780781925 0.23576984296924805 0.2524556780781925 0.2357698429692479 0.6215609907552635 -0.6629701339066687
19500000000.0 0.614268756539245 -0.6676756449488963 0.2578258755439801 0.23650197723028948 0.25782587554398 0.23650197723028946 0.6142687565392408 -0.6676756449488912
19700000000.0 0.6070104677784232 -0.6722523712294952 0.2631463204050912 0.237117953411352 0.2631463204050911 0.23711795341135206 0.6070104677784218 -0.6722523712294931
19900000000.0 0.5997874019372806 -0.6767036705982193 0.26841584530924134 0.23762121887029997 0.2684158453092412 0.2376212188702997 0.5997874019372738 -0.6767036705982119
20100000000.0 0.5926007373625425 -0.6810328222837034 0.2736333825697759 0.2380151410366545 0.2736333825697757 0.23801514103665458 0.592600737362538 -0.681032822283699
20300000000.0 0.585451558377403 -0.6852430280311934 0.27879795905619553 0.2383030085532871 0.27879795905619553 0.23830300855328698 0.5854515583774003 -0.6852430280311899
20500000000.0 0.5783408601352165 -0.6893374132727123 0.2839086913252953 0.2384880324503825 0.2839086913252954 0.2384880324503823 0.5783408601352132 -0.6893374132727084
20700000000.0 0.5712695532444871 -0.6933190283251252 0.28896478098105827 0.23857334734711094 0.2889647809810584 0.238573347347111 0.5712695532444818 -0.6933190283251193
20900000000.0 0.5642384681762758 -0.6971908496118544 0.29396551025218554 0.2385620126768181 0.29396551025218576 0.23856201267681798 0.5642384681762734 -0.697190849611852
21100000000.0 0.5572483594645394 -0.7009557809043616 0.2989102377767632 0.23845701393185106 0.2989102377767633 0.23845701393185115 0.5572483594645371 -0.7009557809043585
21300000000.0 0.5502999097092738 -0.7046166545797903 0.30379839458417923 0.23826126392444136 0.3037983945841793 0.2382612639244412 0.5502999097092708 -0.7046166545797865
21500000000.0 0.5433937333918395 -0.7081762328914443 0.30862948026492054 0.23797760406033952 0.30862948026492065 0.23797760406033952 0.5433937333918367 -0.7081762328914409
21700000000.0 0.5365303805113033 -0.71163720924903 0.3134030593194145 0.2376088056221468 0.31340305931941437 0.2376088056221468 0.5365303805113005 -0.7116372092490268
21900000000.0 0.5297103400501626 -0.7150022095058327 0.31811875767753817 0.23715757105952417 0.31811875767753794 0.23715757105952417 0.5297103400501607 -0.7150022095058303
22100000000.0 0.5229340432774031 -0.7182737932502153 0.3227762593808754 0.23662653528368904 0.32277625938087523 0.23662653528368888 0.5229340432774023 -0.718273793250213
22300000000.0 0.516201866896387 -0.7214544550990268 0.3273753034201845 0.2360182669637938 0.3273753034201845 0.2360182669637939 0.5162018668963828 -0.7214544550990208
22500000000.0 0.5095141360447283 -0.7245466259907094 0.33191568072095545 0.23533526982299696 0.3319156807209556 0.23533526982299696 0.5095141360447266 -0.7245466259907074
22700000000.0 0.5028711271529324 -0.7275526744760736 0.33639723127026144 0.2345799839321852 0.3363972312702612 0.23457998393218477 0.5028711271529296 -0.7275526744760695
22900000000.0 0.4962730706682312 -0.7304749080048458 0.3408198413784817 0.23375478699949828 0.34081984137848137 0.2337547869994982 0.49627307066822735 -0.7304749080048397
